
T9E13C 000:497 SEGGER J-Link V4.80g Log File (0000ms, 0274ms total)
T9E13C 000:497 DLL Compiled: Feb 13 2014 20:50:02 (0000ms, 0274ms total)
T9E13C 000:497 Logging started @ 2017-12-10 00:29 (0001ms, 0275ms total)
T9E13C 000:498 JLINK_SetWarnOutHandler(...) (0000ms, 0275ms total)
T9E13C 000:498 JLINK_OpenEx(...)
Firmware: J-Link OB-STM32F072-CortexM compiled Mar  8 2016 11:15:54
Hardware: V1.00  returns O.K. (0271ms, 0546ms total)
T9E13C 000:769 JLINK_SetErrorOutHandler(...) (0000ms, 0546ms total)
T9E13C 000:769 JLINK_ExecCommand("ProjectFile = "C:\Users\miaojl\Documents\GitHub\jy-zb-mcu\iap_proj\JLinkSettings.ini"", ...)Device "UNSPECIFIED" selected (0 KB flash, 0 KB RAM).  returns 0x00 (0008ms, 0554ms total)
T9E13C 000:795 JLINK_ExecCommand("Device = ARMCM0", ...)Device "UNSPECIFIED" selected (0 KB flash, 0 KB RAM).  returns 0x00 (0011ms, 0566ms total)
T9E13C 000:807 JLINK_ExecCommand("DisableConnectionTimeout", ...)  returns 0x01 (0000ms, 0566ms total)
T9E13C 000:807 JLINK_GetHardwareVersion()  returns 0x2710 (0000ms, 0566ms total)
T9E13C 000:807 JLINK_GetDLLVersion()  returns 48007 (0000ms, 0566ms total)
T9E13C 000:807 JLINK_GetFirmwareString(...) (0000ms, 0566ms total)
T9E13C 000:823 JLINK_GetDLLVersion()  returns 48007 (0000ms, 0566ms total)
T9E13C 000:823 JLINK_GetCompileDateTime() (0000ms, 0566ms total)
T9E13C 000:830 JLINK_GetFirmwareString(...) (0000ms, 0566ms total)
T9E13C 000:835 JLINK_GetHardwareVersion()  returns 0x2710 (0000ms, 0566ms total)
T9E13C 000:846 JLINK_TIF_Select(JLINKARM_TIF_SWD)  returns 0x00 (0001ms, 0567ms total)
T9E13C 000:847 JLINK_SetSpeed(500) (0001ms, 0568ms total)
T9E13C 000:848 JLINK_GetId() >0x108 TIF>Found SWD-DP with ID 0x0BB11477 >0x0D TIF> >0x21 TIF> >0x0D TIF> >0x28 TIF> >0x0D TIF> >0x28 TIF> >0x0D TIF> >0x21 TIF> >0x0D TIF> >0x28 TIF> >0x0D TIF> >0x21 TIF> >0x0D TIF> >0x21 TIF> >0x0D TIF> >0x21 TIF> >0x0D TIF> >0x21 TIF> >0x0D TIF> >0x28 TIF> >0x0D TIF> >0x28 TIF> >0x0D TIF> >0x21 TIF> >0x0D TIF> >0x28 TIF> >0x0D TIF> >0x28 TIF> >0x0D TIF> >0x28 TIF> >0x0D TIF> >0x21 TIF> >0x0D TIF> >0x21 TIF> >0x0D TIF> >0x28 TIF> >0x0D TIF> >0x21 TIF> >0x0D TIF>
 >0x21 TIF>Found Cortex-M0 r0p0, Little endian. -- CPU_WriteMem(4 bytes @ 0xE0002000) -- CPU_ReadMem(4 bytes @ 0xE000EDF0) -- CPU_WriteMem(4 bytes @ 0xE000EDF0) -- CPU_ReadMem(4 bytes @ 0xE0002000)FPUnit: 4 code (BP) slots and 0 literal slots -- CPU_ReadMem(4 bytes @ 0xE000EDFC) -- CPU_WriteMem(4 bytes @ 0xE000EDFC) -- CPU_ReadMem(4 bytes @ 0xE0001000) -- CPU_WriteMem(4 bytes @ 0xE0001000) -- CPU_ReadMem(4 bytes @ 0xE00FF018) >0x0D TIF> >0x21 TIF>  returns 0x0BB11477 (0038ms, 0606ms total)
T9E13C 000:886 JLINK_GetDeviceFamily()  returns 6 (0000ms, 0606ms total)
T9E13C 000:890 JLINK_ReadMem (0xE00FFFF0, 0x0010 Bytes, ...) -- CPU is running -- CPU_ReadMem(16 bytes @ 0xE00FFFF0) -- Data:  0D 00 00 00 10 00 00 00 05 00 00 00 B1 00 00 00  returns 0x00 (0002ms, 0608ms total)
T9E13C 000:892 JLINK_ReadMem (0xE00FFFD0, 0x0020 Bytes, ...) -- CPU is running -- CPU_ReadMem(32 bytes @ 0xE00FFFD0) -- Data:  04 00 00 00 00 00 00 00 00 00 00 00 00 00 00 00 ...  returns 0x00 (0002ms, 0610ms total)
T9E13C 000:894 JLINK_ReadMem (0xE00FF000, 0x0018 Bytes, ...) -- CPU is running -- CPU_ReadMem(24 bytes @ 0xE00FF000) -- Data:  03 F0 F0 FF 03 20 F0 FF 03 30 F0 FF 00 00 00 00 ...  returns 0x00 (0001ms, 0611ms total)
T9E13C 000:895 JLINK_ReadMemU32(0xE000ED00, 0x0001 Items, ...) -- CPU is running -- CPU_ReadMem(4 bytes @ 0xE000ED00) -- Data:  00 C2 0C 41  returns 0x01 (0001ms, 0612ms total)
T9E13C 000:896 JLINK_SetResetType(JLINKARM_RESET_TYPE_NORMAL)  returns JLINKARM_RESET_TYPE_NORMAL (0000ms, 0612ms total)
T9E13C 000:896 JLINK_Reset() -- CPU is running -- CPU_WriteMem(4 bytes @ 0xE000EDF0) -- CPU is running -- CPU_WriteMem(4 bytes @ 0xE000EDFC) >0x35 TIF> -- CPU is running -- CPU_WriteMem(4 bytes @ 0xE000ED0C) -- CPU is running -- CPU_ReadMem(4 bytes @ 0xE000EDF0) -- CPU is running -- CPU_ReadMem(4 bytes @ 0xE000EDF0) -- CPU is running -- CPU_WriteMem(4 bytes @ 0xE000EDF0) -- CPU is running -- CPU_WriteMem(4 bytes @ 0xE000EDFC) -- CPU is running -- CPU_ReadMem(4 bytes @ 0xE000EDF0)
 -- CPU_WriteMem(4 bytes @ 0xE000EDFC) -- CPU_WriteMem(4 bytes @ 0xE000EDFC) -- CPU_WriteMem(4 bytes @ 0xE000EDFC) -- CPU_WriteMem(4 bytes @ 0xE0001020) -- CPU_WriteMem(4 bytes @ 0xE0001024) -- CPU_WriteMem(4 bytes @ 0xE0001028) -- CPU_WriteMem(4 bytes @ 0xE000EDFC) -- CPU_WriteMem(4 bytes @ 0xE0001028) -- CPU_ReadMem(4 bytes @ 0x00000004) -- CPU_ReadMem(4 bytes @ 0xE0002000) -- CPU_ReadMem(4 bytes @ 0xE0002008) -- CPU_ReadMem(4 bytes @ 0xE000200C) -- CPU_ReadMem(4 bytes @ 0xE0002010)
 -- CPU_ReadMem(4 bytes @ 0xE0002014) -- CPU_WriteMem(4 bytes @ 0xE0002000) -- CPU_WriteMem(4 bytes @ 0xE0002008) -- CPU_WriteMem(4 bytes @ 0xE000200C) -- CPU_WriteMem(4 bytes @ 0xE0002010) -- CPU_WriteMem(4 bytes @ 0xE0002014) -- CPU_WriteMem(4 bytes @ 0xE0002000) -- CPU_WriteMem(4 bytes @ 0xE0002008) -- CPU_WriteMem(4 bytes @ 0xE000200C) -- CPU_WriteMem(4 bytes @ 0xE0002010) -- CPU_WriteMem(4 bytes @ 0xE0002014) -- CPU_WriteMem(4 bytes @ 0xE0002000) -- CPU_ReadMem(4 bytes @ 0xE000EDFC)
 -- CPU_ReadMem(4 bytes @ 0xE0001000) -- CPU_WriteMem(4 bytes @ 0xE0001000) (0289ms, 0901ms total)
T9E13C 001:185 JLINK_Halt()  returns 0x00 (0000ms, 0901ms total)
T9E13C 001:185 JLINK_IsHalted()  returns TRUE (0000ms, 0901ms total)
T9E13C 001:185 JLINK_ReadMemU32(0xE000EDF0, 0x0001 Items, ...) -- CPU_ReadMem(4 bytes @ 0xE000EDF0) -- Data:  03 00 03 00  returns 0x01 (0000ms, 0901ms total)
T9E13C 001:185 JLINK_WriteU32(0xE000EDF0, 0xA05F0003) -- CPU_WriteMem(4 bytes @ 0xE000EDF0)  returns 0x00 (0002ms, 0903ms total)
T9E13C 001:187 JLINK_WriteU32(0xE000EDFC, 0x01000000) -- CPU_WriteMem(4 bytes @ 0xE000EDFC)  returns 0x00 (0002ms, 0905ms total)
T9E13C 001:205 JLINK_GetHWStatus(...)  returns 0x00 (0000ms, 0905ms total)
T9E13C 001:219 JLINK_GetNumBPUnits(Type = 0xFFFFFF00)  returns 0x04 (0000ms, 0905ms total)
T9E13C 001:219 JLINK_GetNumBPUnits(Type = 0xF0)  returns 0x2000 (0000ms, 0905ms total)
T9E13C 001:219 JLINK_GetNumWPUnits()  returns 0x02 (0000ms, 0905ms total)
T9E13C 001:236 JLINK_GetSpeed()  returns 0x1F4 (0000ms, 0905ms total)
T9E13C 001:247 JLINK_ReadMemU32(0xE000E004, 0x0001 Items, ...) -- CPU_ReadMem(4 bytes @ 0xE000E004) -- Data:  00 00 00 00  returns 0x01 (0001ms, 0906ms total)
T9E13C 001:248 JLINK_Halt()  returns 0x00 (0000ms, 0906ms total)
T9E13C 001:248 JLINK_IsHalted()  returns TRUE (0000ms, 0906ms total)
T9E13C 001:253 JLINK_WriteMem(0x10000000, 0x0130 Bytes, ...) -- Data:  00 BE 0A E0 0D 78 2D 06 68 40 08 24 40 00 00 D3 ... -- CPU_WriteMem(304 bytes @ 0x10000000)  returns 0x130 (0009ms, 0915ms total)
T9E13C 001:262 JLINK_WriteReg(R0, 0x00000000)  returns 0x00 (0000ms, 0915ms total)
T9E13C 001:262 JLINK_WriteReg(R1, 0x00B71B00)  returns 0x00 (0000ms, 0915ms total)
T9E13C 001:262 JLINK_WriteReg(R2, 0x00000001)  returns 0x00 (0000ms, 0915ms total)
T9E13C 001:262 JLINK_WriteReg(R3, 0x00000000)  returns 0x00 (0000ms, 0915ms total)
T9E13C 001:262 JLINK_WriteReg(R4, 0x00000000)  returns 0x00 (0000ms, 0915ms total)
T9E13C 001:262 JLINK_WriteReg(R5, 0x00000000)  returns 0x00 (0000ms, 0915ms total)
T9E13C 001:262 JLINK_WriteReg(R6, 0x00000000)  returns 0x00 (0000ms, 0915ms total)
T9E13C 001:262 JLINK_WriteReg(R7, 0x00000000)  returns 0x00 (0000ms, 0915ms total)
T9E13C 001:262 JLINK_WriteReg(R8, 0x00000000)  returns 0x00 (0000ms, 0915ms total)
T9E13C 001:262 JLINK_WriteReg(R9, 0x1000012C)  returns 0x00 (0000ms, 0915ms total)
T9E13C 001:262 JLINK_WriteReg(R10, 0x00000000)  returns 0x00 (0000ms, 0915ms total)
T9E13C 001:262 JLINK_WriteReg(R11, 0x00000000)  returns 0x00 (0000ms, 0915ms total)
T9E13C 001:262 JLINK_WriteReg(R12, 0x00000000)  returns 0x00 (0000ms, 0915ms total)
T9E13C 001:262 JLINK_WriteReg(R13 (SP), 0x10000800)  returns 0x00 (0001ms, 0916ms total)
T9E13C 001:263 JLINK_WriteReg(R14, 0x10000001)  returns 0x00 (0000ms, 0916ms total)
T9E13C 001:263 JLINK_WriteReg(R15 (PC), 0x10000038)  returns 0x00 (0000ms, 0916ms total)
T9E13C 001:263 JLINK_WriteReg(XPSR, 0x01000000)  returns 0x00 (0000ms, 0916ms total)
T9E13C 001:263 JLINK_WriteReg(MSP, 0x10000800)  returns 0x00 (0000ms, 0916ms total)
T9E13C 001:263 JLINK_WriteReg(PSP, 0x10000800)  returns 0x00 (0000ms, 0916ms total)
T9E13C 001:263 JLINK_WriteReg(CFBP, 0x00000000)  returns 0x00 (0000ms, 0916ms total)
T9E13C 001:263 JLINK_SetBPEx(Addr = 0x10000000, Type = 0xFFFFFFF2)  returns 0x00000001 (0000ms, 0916ms total)
T9E13C 001:263 JLINK_Go() -- CPU_WriteMem(4 bytes @ 0xE0002000) -- CPU_WriteMem(4 bytes @ 0xE0002008) -- CPU_WriteMem(4 bytes @ 0xE000200C) -- CPU_WriteMem(4 bytes @ 0xE0002010) -- CPU_WriteMem(4 bytes @ 0xE0002014) -- CPU_WriteMem(4 bytes @ 0xE0001004) (0014ms, 0930ms total)
T9E13C 001:277 JLINK_IsHalted()  returns FALSE (0002ms, 0932ms total)
T9E13C 001:376 JLINK_IsHalted()  returns TRUE (0011ms, 0941ms total)
T9E13C 001:387 JLINK_ReadReg(R15 (PC))  returns 0x10000000 (0000ms, 0930ms total)
T9E13C 001:387 JLINK_ClrBPEx(BPHandle = 0x00000001)  returns 0x00 (0000ms, 0930ms total)
T9E13C 001:387 JLINK_ReadReg(R0)  returns 0x00000000 (0000ms, 0930ms total)
T9E13C 001:389 JLINK_WriteReg(R0, 0x00000000)  returns 0x00 (0000ms, 0930ms total)
T9E13C 001:389 JLINK_WriteReg(R1, 0x00000200)  returns 0x00 (0000ms, 0930ms total)
T9E13C 001:389 JLINK_WriteReg(R2, 0x000000FF)  returns 0x00 (0000ms, 0930ms total)
T9E13C 001:389 JLINK_WriteReg(R3, 0x00000000)  returns 0x00 (0000ms, 0930ms total)
T9E13C 001:389 JLINK_WriteReg(R4, 0x00000000)  returns 0x00 (0000ms, 0930ms total)
T9E13C 001:389 JLINK_WriteReg(R5, 0x00000000)  returns 0x00 (0000ms, 0930ms total)
T9E13C 001:389 JLINK_WriteReg(R6, 0x00000000)  returns 0x00 (0000ms, 0930ms total)
T9E13C 001:389 JLINK_WriteReg(R7, 0x00000000)  returns 0x00 (0000ms, 0930ms total)
T9E13C 001:389 JLINK_WriteReg(R8, 0x00000000)  returns 0x00 (0000ms, 0930ms total)
T9E13C 001:389 JLINK_WriteReg(R9, 0x1000012C)  returns 0x00 (0000ms, 0930ms total)
T9E13C 001:389 JLINK_WriteReg(R10, 0x00000000)  returns 0x00 (0000ms, 0930ms total)
T9E13C 001:389 JLINK_WriteReg(R11, 0x00000000)  returns 0x00 (0000ms, 0930ms total)
T9E13C 001:389 JLINK_WriteReg(R12, 0x00000000)  returns 0x00 (0000ms, 0930ms total)
T9E13C 001:389 JLINK_WriteReg(R13 (SP), 0x10000800)  returns 0x00 (0000ms, 0930ms total)
T9E13C 001:389 JLINK_WriteReg(R14, 0x10000001)  returns 0x00 (0000ms, 0930ms total)
T9E13C 001:389 JLINK_WriteReg(R15 (PC), 0x10000020)  returns 0x00 (0000ms, 0930ms total)
T9E13C 001:389 JLINK_WriteReg(XPSR, 0x01000000)  returns 0x00 (0000ms, 0930ms total)
T9E13C 001:389 JLINK_WriteReg(MSP, 0x10000800)  returns 0x00 (0000ms, 0930ms total)
T9E13C 001:389 JLINK_WriteReg(PSP, 0x10000800)  returns 0x00 (0000ms, 0930ms total)
T9E13C 001:389 JLINK_WriteReg(CFBP, 0x00000000)  returns 0x00 (0000ms, 0930ms total)
T9E13C 001:389 JLINK_SetBPEx(Addr = 0x10000000, Type = 0xFFFFFFF2)  returns 0x00000002 (0000ms, 0930ms total)
T9E13C 001:389 JLINK_Go() -- CPU_WriteMem(4 bytes @ 0xE0002000) (0006ms, 0936ms total)
T9E13C 001:395 JLINK_IsHalted()  returns TRUE (0012ms, 0948ms total)
T9E13C 001:407 JLINK_ReadReg(R15 (PC))  returns 0x10000000 (0000ms, 0936ms total)
T9E13C 001:407 JLINK_ClrBPEx(BPHandle = 0x00000002)  returns 0x00 (0000ms, 0936ms total)
T9E13C 001:407 JLINK_ReadReg(R0)  returns 0x00000001 (0000ms, 0936ms total)
T9E13C 001:407 JLINK_WriteReg(R0, 0x00000000)  returns 0x00 (0000ms, 0936ms total)
T9E13C 001:407 JLINK_WriteReg(R1, 0x00000200)  returns 0x00 (0000ms, 0936ms total)
T9E13C 001:407 JLINK_WriteReg(R2, 0x000000FF)  returns 0x00 (0000ms, 0936ms total)
T9E13C 001:407 JLINK_WriteReg(R3, 0x00000000)  returns 0x00 (0000ms, 0936ms total)
T9E13C 001:407 JLINK_WriteReg(R4, 0x00000000)  returns 0x00 (0000ms, 0936ms total)
T9E13C 001:407 JLINK_WriteReg(R5, 0x00000000)  returns 0x00 (0000ms, 0936ms total)
T9E13C 001:407 JLINK_WriteReg(R6, 0x00000000)  returns 0x00 (0000ms, 0936ms total)
T9E13C 001:407 JLINK_WriteReg(R7, 0x00000000)  returns 0x00 (0000ms, 0936ms total)
T9E13C 001:407 JLINK_WriteReg(R8, 0x00000000)  returns 0x00 (0000ms, 0936ms total)
T9E13C 001:407 JLINK_WriteReg(R9, 0x1000012C)  returns 0x00 (0000ms, 0936ms total)
T9E13C 001:407 JLINK_WriteReg(R10, 0x00000000)  returns 0x00 (0000ms, 0936ms total)
T9E13C 001:407 JLINK_WriteReg(R11, 0x00000000)  returns 0x00 (0000ms, 0936ms total)
T9E13C 001:407 JLINK_WriteReg(R12, 0x00000000)  returns 0x00 (0000ms, 0936ms total)
T9E13C 001:407 JLINK_WriteReg(R13 (SP), 0x10000800)  returns 0x00 (0000ms, 0936ms total)
T9E13C 001:407 JLINK_WriteReg(R14, 0x10000001)  returns 0x00 (0000ms, 0936ms total)
T9E13C 001:407 JLINK_WriteReg(R15 (PC), 0x100000A0)  returns 0x00 (0000ms, 0936ms total)
T9E13C 001:407 JLINK_WriteReg(XPSR, 0x01000000)  returns 0x00 (0000ms, 0936ms total)
T9E13C 001:407 JLINK_WriteReg(MSP, 0x10000800)  returns 0x00 (0000ms, 0936ms total)
T9E13C 001:407 JLINK_WriteReg(PSP, 0x10000800)  returns 0x00 (0000ms, 0936ms total)
T9E13C 001:407 JLINK_WriteReg(CFBP, 0x00000000)  returns 0x00 (0000ms, 0936ms total)
T9E13C 001:407 JLINK_SetBPEx(Addr = 0x10000000, Type = 0xFFFFFFF2)  returns 0x00000003 (0000ms, 0936ms total)
T9E13C 001:407 JLINK_Go() -- CPU_WriteMem(4 bytes @ 0xE0002000) (0006ms, 0942ms total)
T9E13C 001:413 JLINK_IsHalted()  returns FALSE (0005ms, 0947ms total)
T9E13C 001:432 JLINK_IsHalted()  returns TRUE (0012ms, 0954ms total)
T9E13C 001:444 JLINK_ReadReg(R15 (PC))  returns 0x10000000 (0000ms, 0942ms total)
T9E13C 001:444 JLINK_ClrBPEx(BPHandle = 0x00000003)  returns 0x00 (0000ms, 0942ms total)
T9E13C 001:444 JLINK_ReadReg(R0)  returns 0x00000000 (0000ms, 0942ms total)
T9E13C 001:445 JLINK_WriteReg(R0, 0x00000200)  returns 0x00 (0000ms, 0942ms total)
T9E13C 001:445 JLINK_WriteReg(R1, 0x00000200)  returns 0x00 (0000ms, 0942ms total)
T9E13C 001:445 JLINK_WriteReg(R2, 0x000000FF)  returns 0x00 (0000ms, 0942ms total)
T9E13C 001:445 JLINK_WriteReg(R3, 0x00000000)  returns 0x00 (0000ms, 0942ms total)
T9E13C 001:445 JLINK_WriteReg(R4, 0x00000000)  returns 0x00 (0000ms, 0942ms total)
T9E13C 001:445 JLINK_WriteReg(R5, 0x00000000)  returns 0x00 (0000ms, 0942ms total)
T9E13C 001:445 JLINK_WriteReg(R6, 0x00000000)  returns 0x00 (0000ms, 0942ms total)
T9E13C 001:445 JLINK_WriteReg(R7, 0x00000000)  returns 0x00 (0000ms, 0942ms total)
T9E13C 001:445 JLINK_WriteReg(R8, 0x00000000)  returns 0x00 (0000ms, 0942ms total)
T9E13C 001:445 JLINK_WriteReg(R9, 0x1000012C)  returns 0x00 (0000ms, 0942ms total)
T9E13C 001:445 JLINK_WriteReg(R10, 0x00000000)  returns 0x00 (0000ms, 0942ms total)
T9E13C 001:445 JLINK_WriteReg(R11, 0x00000000)  returns 0x00 (0000ms, 0942ms total)
T9E13C 001:445 JLINK_WriteReg(R12, 0x00000000)  returns 0x00 (0000ms, 0942ms total)
T9E13C 001:445 JLINK_WriteReg(R13 (SP), 0x10000800)  returns 0x00 (0000ms, 0942ms total)
T9E13C 001:445 JLINK_WriteReg(R14, 0x10000001)  returns 0x00 (0000ms, 0942ms total)
T9E13C 001:445 JLINK_WriteReg(R15 (PC), 0x10000020)  returns 0x00 (0000ms, 0942ms total)
T9E13C 001:445 JLINK_WriteReg(XPSR, 0x01000000)  returns 0x00 (0000ms, 0942ms total)
T9E13C 001:445 JLINK_WriteReg(MSP, 0x10000800)  returns 0x00 (0000ms, 0942ms total)
T9E13C 001:445 JLINK_WriteReg(PSP, 0x10000800)  returns 0x00 (0000ms, 0942ms total)
T9E13C 001:445 JLINK_WriteReg(CFBP, 0x00000000)  returns 0x00 (0000ms, 0942ms total)
T9E13C 001:445 JLINK_SetBPEx(Addr = 0x10000000, Type = 0xFFFFFFF2)  returns 0x00000004 (0000ms, 0942ms total)
T9E13C 001:445 JLINK_Go() -- CPU_WriteMem(4 bytes @ 0xE0002000) (0006ms, 0948ms total)
T9E13C 001:451 JLINK_IsHalted()  returns TRUE (0012ms, 0960ms total)
T9E13C 001:463 JLINK_ReadReg(R15 (PC))  returns 0x10000000 (0000ms, 0948ms total)
T9E13C 001:463 JLINK_ClrBPEx(BPHandle = 0x00000004)  returns 0x00 (0000ms, 0948ms total)
T9E13C 001:463 JLINK_ReadReg(R0)  returns 0x00000001 (0000ms, 0948ms total)
T9E13C 001:463 JLINK_WriteReg(R0, 0x00000200)  returns 0x00 (0000ms, 0948ms total)
T9E13C 001:463 JLINK_WriteReg(R1, 0x00000200)  returns 0x00 (0000ms, 0948ms total)
T9E13C 001:463 JLINK_WriteReg(R2, 0x000000FF)  returns 0x00 (0000ms, 0948ms total)
T9E13C 001:463 JLINK_WriteReg(R3, 0x00000000)  returns 0x00 (0000ms, 0948ms total)
T9E13C 001:463 JLINK_WriteReg(R4, 0x00000000)  returns 0x00 (0000ms, 0948ms total)
T9E13C 001:463 JLINK_WriteReg(R5, 0x00000000)  returns 0x00 (0000ms, 0948ms total)
T9E13C 001:463 JLINK_WriteReg(R6, 0x00000000)  returns 0x00 (0000ms, 0948ms total)
T9E13C 001:463 JLINK_WriteReg(R7, 0x00000000)  returns 0x00 (0000ms, 0948ms total)
T9E13C 001:463 JLINK_WriteReg(R8, 0x00000000)  returns 0x00 (0000ms, 0948ms total)
T9E13C 001:463 JLINK_WriteReg(R9, 0x1000012C)  returns 0x00 (0000ms, 0948ms total)
T9E13C 001:463 JLINK_WriteReg(R10, 0x00000000)  returns 0x00 (0000ms, 0948ms total)
T9E13C 001:463 JLINK_WriteReg(R11, 0x00000000)  returns 0x00 (0000ms, 0948ms total)
T9E13C 001:463 JLINK_WriteReg(R12, 0x00000000)  returns 0x00 (0000ms, 0948ms total)
T9E13C 001:463 JLINK_WriteReg(R13 (SP), 0x10000800)  returns 0x00 (0000ms, 0948ms total)
T9E13C 001:463 JLINK_WriteReg(R14, 0x10000001)  returns 0x00 (0000ms, 0948ms total)
T9E13C 001:463 JLINK_WriteReg(R15 (PC), 0x100000A0)  returns 0x00 (0000ms, 0948ms total)
T9E13C 001:463 JLINK_WriteReg(XPSR, 0x01000000)  returns 0x00 (0000ms, 0948ms total)
T9E13C 001:463 JLINK_WriteReg(MSP, 0x10000800)  returns 0x00 (0000ms, 0948ms total)
T9E13C 001:463 JLINK_WriteReg(PSP, 0x10000800)  returns 0x00 (0000ms, 0948ms total)
T9E13C 001:463 JLINK_WriteReg(CFBP, 0x00000000)  returns 0x00 (0000ms, 0948ms total)
T9E13C 001:463 JLINK_SetBPEx(Addr = 0x10000000, Type = 0xFFFFFFF2)  returns 0x00000005 (0000ms, 0948ms total)
T9E13C 001:463 JLINK_Go() -- CPU_WriteMem(4 bytes @ 0xE0002000) (0006ms, 0954ms total)
T9E13C 001:469 JLINK_IsHalted()  returns FALSE (0005ms, 0959ms total)
T9E13C 001:480 JLINK_IsHalted()  returns TRUE (0012ms, 0966ms total)
T9E13C 001:492 JLINK_ReadReg(R15 (PC))  returns 0x10000000 (0000ms, 0954ms total)
T9E13C 001:492 JLINK_ClrBPEx(BPHandle = 0x00000005)  returns 0x00 (0000ms, 0954ms total)
T9E13C 001:492 JLINK_ReadReg(R0)  returns 0x00000000 (0000ms, 0954ms total)
T9E13C 001:493 JLINK_WriteReg(R0, 0x00000400)  returns 0x00 (0000ms, 0954ms total)
T9E13C 001:493 JLINK_WriteReg(R1, 0x00000200)  returns 0x00 (0000ms, 0954ms total)
T9E13C 001:493 JLINK_WriteReg(R2, 0x000000FF)  returns 0x00 (0000ms, 0954ms total)
T9E13C 001:493 JLINK_WriteReg(R3, 0x00000000)  returns 0x00 (0000ms, 0954ms total)
T9E13C 001:493 JLINK_WriteReg(R4, 0x00000000)  returns 0x00 (0000ms, 0954ms total)
T9E13C 001:493 JLINK_WriteReg(R5, 0x00000000)  returns 0x00 (0000ms, 0954ms total)
T9E13C 001:493 JLINK_WriteReg(R6, 0x00000000)  returns 0x00 (0000ms, 0954ms total)
T9E13C 001:493 JLINK_WriteReg(R7, 0x00000000)  returns 0x00 (0000ms, 0954ms total)
T9E13C 001:493 JLINK_WriteReg(R8, 0x00000000)  returns 0x00 (0000ms, 0954ms total)
T9E13C 001:493 JLINK_WriteReg(R9, 0x1000012C)  returns 0x00 (0000ms, 0954ms total)
T9E13C 001:493 JLINK_WriteReg(R10, 0x00000000)  returns 0x00 (0000ms, 0954ms total)
T9E13C 001:493 JLINK_WriteReg(R11, 0x00000000)  returns 0x00 (0000ms, 0954ms total)
T9E13C 001:493 JLINK_WriteReg(R12, 0x00000000)  returns 0x00 (0000ms, 0954ms total)
T9E13C 001:493 JLINK_WriteReg(R13 (SP), 0x10000800)  returns 0x00 (0000ms, 0954ms total)
T9E13C 001:493 JLINK_WriteReg(R14, 0x10000001)  returns 0x00 (0000ms, 0954ms total)
T9E13C 001:493 JLINK_WriteReg(R15 (PC), 0x10000020)  returns 0x00 (0000ms, 0954ms total)
T9E13C 001:494 JLINK_WriteReg(XPSR, 0x01000000)  returns 0x00 (0000ms, 0955ms total)
T9E13C 001:494 JLINK_WriteReg(MSP, 0x10000800)  returns 0x00 (0000ms, 0955ms total)
T9E13C 001:494 JLINK_WriteReg(PSP, 0x10000800)  returns 0x00 (0000ms, 0955ms total)
T9E13C 001:494 JLINK_WriteReg(CFBP, 0x00000000)  returns 0x00 (0000ms, 0955ms total)
T9E13C 001:494 JLINK_SetBPEx(Addr = 0x10000000, Type = 0xFFFFFFF2)  returns 0x00000006 (0000ms, 0955ms total)
T9E13C 001:494 JLINK_Go() -- CPU_WriteMem(4 bytes @ 0xE0002000) (0005ms, 0960ms total)
T9E13C 001:499 JLINK_IsHalted()  returns TRUE (0012ms, 0972ms total)
T9E13C 001:511 JLINK_ReadReg(R15 (PC))  returns 0x10000000 (0000ms, 0960ms total)
T9E13C 001:511 JLINK_ClrBPEx(BPHandle = 0x00000006)  returns 0x00 (0000ms, 0960ms total)
T9E13C 001:511 JLINK_ReadReg(R0)  returns 0x00000001 (0000ms, 0960ms total)
T9E13C 001:511 JLINK_WriteReg(R0, 0x00000400)  returns 0x00 (0000ms, 0960ms total)
T9E13C 001:511 JLINK_WriteReg(R1, 0x00000200)  returns 0x00 (0000ms, 0960ms total)
T9E13C 001:511 JLINK_WriteReg(R2, 0x000000FF)  returns 0x00 (0000ms, 0960ms total)
T9E13C 001:511 JLINK_WriteReg(R3, 0x00000000)  returns 0x00 (0000ms, 0960ms total)
T9E13C 001:511 JLINK_WriteReg(R4, 0x00000000)  returns 0x00 (0000ms, 0960ms total)
T9E13C 001:511 JLINK_WriteReg(R5, 0x00000000)  returns 0x00 (0000ms, 0960ms total)
T9E13C 001:511 JLINK_WriteReg(R6, 0x00000000)  returns 0x00 (0000ms, 0960ms total)
T9E13C 001:511 JLINK_WriteReg(R7, 0x00000000)  returns 0x00 (0000ms, 0960ms total)
T9E13C 001:511 JLINK_WriteReg(R8, 0x00000000)  returns 0x00 (0000ms, 0960ms total)
T9E13C 001:511 JLINK_WriteReg(R9, 0x1000012C)  returns 0x00 (0000ms, 0960ms total)
T9E13C 001:511 JLINK_WriteReg(R10, 0x00000000)  returns 0x00 (0000ms, 0960ms total)
T9E13C 001:511 JLINK_WriteReg(R11, 0x00000000)  returns 0x00 (0000ms, 0960ms total)
T9E13C 001:511 JLINK_WriteReg(R12, 0x00000000)  returns 0x00 (0000ms, 0960ms total)
T9E13C 001:511 JLINK_WriteReg(R13 (SP), 0x10000800)  returns 0x00 (0000ms, 0960ms total)
T9E13C 001:511 JLINK_WriteReg(R14, 0x10000001)  returns 0x00 (0000ms, 0960ms total)
T9E13C 001:511 JLINK_WriteReg(R15 (PC), 0x100000A0)  returns 0x00 (0000ms, 0960ms total)
T9E13C 001:511 JLINK_WriteReg(XPSR, 0x01000000)  returns 0x00 (0000ms, 0960ms total)
T9E13C 001:511 JLINK_WriteReg(MSP, 0x10000800)  returns 0x00 (0000ms, 0960ms total)
T9E13C 001:511 JLINK_WriteReg(PSP, 0x10000800)  returns 0x00 (0000ms, 0960ms total)
T9E13C 001:511 JLINK_WriteReg(CFBP, 0x00000000)  returns 0x00 (0000ms, 0960ms total)
T9E13C 001:511 JLINK_SetBPEx(Addr = 0x10000000, Type = 0xFFFFFFF2)  returns 0x00000007 (0000ms, 0960ms total)
T9E13C 001:511 JLINK_Go() -- CPU_WriteMem(4 bytes @ 0xE0002000) (0006ms, 0966ms total)
T9E13C 001:517 JLINK_IsHalted()  returns FALSE (0004ms, 0970ms total)
T9E13C 001:547 JLINK_IsHalted()  returns TRUE (0011ms, 0977ms total)
T9E13C 001:558 JLINK_ReadReg(R15 (PC))  returns 0x10000000 (0000ms, 0966ms total)
T9E13C 001:558 JLINK_ClrBPEx(BPHandle = 0x00000007)  returns 0x00 (0000ms, 0966ms total)
T9E13C 001:558 JLINK_ReadReg(R0)  returns 0x00000000 (0000ms, 0966ms total)
T9E13C 001:560 JLINK_WriteReg(R0, 0x00000600)  returns 0x00 (0000ms, 0966ms total)
T9E13C 001:560 JLINK_WriteReg(R1, 0x00000200)  returns 0x00 (0000ms, 0966ms total)
T9E13C 001:560 JLINK_WriteReg(R2, 0x000000FF)  returns 0x00 (0000ms, 0966ms total)
T9E13C 001:560 JLINK_WriteReg(R3, 0x00000000)  returns 0x00 (0000ms, 0966ms total)
T9E13C 001:560 JLINK_WriteReg(R4, 0x00000000)  returns 0x00 (0000ms, 0966ms total)
T9E13C 001:560 JLINK_WriteReg(R5, 0x00000000)  returns 0x00 (0000ms, 0966ms total)
T9E13C 001:560 JLINK_WriteReg(R6, 0x00000000)  returns 0x00 (0000ms, 0966ms total)
T9E13C 001:560 JLINK_WriteReg(R7, 0x00000000)  returns 0x00 (0000ms, 0966ms total)
T9E13C 001:560 JLINK_WriteReg(R8, 0x00000000)  returns 0x00 (0000ms, 0966ms total)
T9E13C 001:560 JLINK_WriteReg(R9, 0x1000012C)  returns 0x00 (0000ms, 0966ms total)
T9E13C 001:560 JLINK_WriteReg(R10, 0x00000000)  returns 0x00 (0000ms, 0966ms total)
T9E13C 001:560 JLINK_WriteReg(R11, 0x00000000)  returns 0x00 (0000ms, 0966ms total)
T9E13C 001:560 JLINK_WriteReg(R12, 0x00000000)  returns 0x00 (0000ms, 0966ms total)
T9E13C 001:560 JLINK_WriteReg(R13 (SP), 0x10000800)  returns 0x00 (0000ms, 0966ms total)
T9E13C 001:560 JLINK_WriteReg(R14, 0x10000001)  returns 0x00 (0000ms, 0966ms total)
T9E13C 001:560 JLINK_WriteReg(R15 (PC), 0x10000020)  returns 0x00 (0000ms, 0966ms total)
T9E13C 001:560 JLINK_WriteReg(XPSR, 0x01000000)  returns 0x00 (0000ms, 0966ms total)
T9E13C 001:560 JLINK_WriteReg(MSP, 0x10000800)  returns 0x00 (0000ms, 0966ms total)
T9E13C 001:560 JLINK_WriteReg(PSP, 0x10000800)  returns 0x00 (0000ms, 0966ms total)
T9E13C 001:560 JLINK_WriteReg(CFBP, 0x00000000)  returns 0x00 (0000ms, 0966ms total)
T9E13C 001:560 JLINK_SetBPEx(Addr = 0x10000000, Type = 0xFFFFFFF2)  returns 0x00000008 (0000ms, 0966ms total)
T9E13C 001:560 JLINK_Go() -- CPU_WriteMem(4 bytes @ 0xE0002000) (0007ms, 0973ms total)
T9E13C 001:567 JLINK_IsHalted()  returns TRUE (0012ms, 0985ms total)
T9E13C 001:579 JLINK_ReadReg(R15 (PC))  returns 0x10000000 (0000ms, 0973ms total)
T9E13C 001:579 JLINK_ClrBPEx(BPHandle = 0x00000008)  returns 0x00 (0000ms, 0973ms total)
T9E13C 001:579 JLINK_ReadReg(R0)  returns 0x00000001 (0000ms, 0973ms total)
T9E13C 001:579 JLINK_WriteReg(R0, 0x00000600)  returns 0x00 (0000ms, 0973ms total)
T9E13C 001:579 JLINK_WriteReg(R1, 0x00000200)  returns 0x00 (0000ms, 0973ms total)
T9E13C 001:579 JLINK_WriteReg(R2, 0x000000FF)  returns 0x00 (0000ms, 0973ms total)
T9E13C 001:579 JLINK_WriteReg(R3, 0x00000000)  returns 0x00 (0000ms, 0973ms total)
T9E13C 001:579 JLINK_WriteReg(R4, 0x00000000)  returns 0x00 (0000ms, 0973ms total)
T9E13C 001:579 JLINK_WriteReg(R5, 0x00000000)  returns 0x00 (0000ms, 0973ms total)
T9E13C 001:579 JLINK_WriteReg(R6, 0x00000000)  returns 0x00 (0000ms, 0973ms total)
T9E13C 001:579 JLINK_WriteReg(R7, 0x00000000)  returns 0x00 (0000ms, 0973ms total)
T9E13C 001:579 JLINK_WriteReg(R8, 0x00000000)  returns 0x00 (0000ms, 0973ms total)
T9E13C 001:579 JLINK_WriteReg(R9, 0x1000012C)  returns 0x00 (0000ms, 0973ms total)
T9E13C 001:579 JLINK_WriteReg(R10, 0x00000000)  returns 0x00 (0000ms, 0973ms total)
T9E13C 001:579 JLINK_WriteReg(R11, 0x00000000)  returns 0x00 (0000ms, 0973ms total)
T9E13C 001:579 JLINK_WriteReg(R12, 0x00000000)  returns 0x00 (0000ms, 0973ms total)
T9E13C 001:579 JLINK_WriteReg(R13 (SP), 0x10000800)  returns 0x00 (0000ms, 0973ms total)
T9E13C 001:579 JLINK_WriteReg(R14, 0x10000001)  returns 0x00 (0000ms, 0973ms total)
T9E13C 001:579 JLINK_WriteReg(R15 (PC), 0x100000A0)  returns 0x00 (0000ms, 0973ms total)
T9E13C 001:579 JLINK_WriteReg(XPSR, 0x01000000)  returns 0x00 (0000ms, 0973ms total)
T9E13C 001:579 JLINK_WriteReg(MSP, 0x10000800)  returns 0x00 (0000ms, 0973ms total)
T9E13C 001:579 JLINK_WriteReg(PSP, 0x10000800)  returns 0x00 (0000ms, 0973ms total)
T9E13C 001:579 JLINK_WriteReg(CFBP, 0x00000000)  returns 0x00 (0000ms, 0973ms total)
T9E13C 001:579 JLINK_SetBPEx(Addr = 0x10000000, Type = 0xFFFFFFF2)  returns 0x00000009 (0000ms, 0973ms total)
T9E13C 001:579 JLINK_Go() -- CPU_WriteMem(4 bytes @ 0xE0002000) (0006ms, 0979ms total)
T9E13C 001:585 JLINK_IsHalted()  returns FALSE (0005ms, 0984ms total)
T9E13C 001:597 JLINK_IsHalted()  returns TRUE (0012ms, 0991ms total)
T9E13C 001:609 JLINK_ReadReg(R15 (PC))  returns 0x10000000 (0000ms, 0979ms total)
T9E13C 001:609 JLINK_ClrBPEx(BPHandle = 0x00000009)  returns 0x00 (0000ms, 0979ms total)
T9E13C 001:609 JLINK_ReadReg(R0)  returns 0x00000000 (0000ms, 0979ms total)
T9E13C 001:609 JLINK_WriteReg(R0, 0x00000800)  returns 0x00 (0000ms, 0979ms total)
T9E13C 001:609 JLINK_WriteReg(R1, 0x00000200)  returns 0x00 (0000ms, 0979ms total)
T9E13C 001:609 JLINK_WriteReg(R2, 0x000000FF)  returns 0x00 (0000ms, 0979ms total)
T9E13C 001:609 JLINK_WriteReg(R3, 0x00000000)  returns 0x00 (0000ms, 0979ms total)
T9E13C 001:609 JLINK_WriteReg(R4, 0x00000000)  returns 0x00 (0000ms, 0979ms total)
T9E13C 001:609 JLINK_WriteReg(R5, 0x00000000)  returns 0x00 (0001ms, 0980ms total)
T9E13C 001:610 JLINK_WriteReg(R6, 0x00000000)  returns 0x00 (0000ms, 0980ms total)
T9E13C 001:610 JLINK_WriteReg(R7, 0x00000000)  returns 0x00 (0000ms, 0980ms total)
T9E13C 001:610 JLINK_WriteReg(R8, 0x00000000)  returns 0x00 (0000ms, 0980ms total)
T9E13C 001:610 JLINK_WriteReg(R9, 0x1000012C)  returns 0x00 (0000ms, 0980ms total)
T9E13C 001:610 JLINK_WriteReg(R10, 0x00000000)  returns 0x00 (0000ms, 0980ms total)
T9E13C 001:610 JLINK_WriteReg(R11, 0x00000000)  returns 0x00 (0000ms, 0980ms total)
T9E13C 001:610 JLINK_WriteReg(R12, 0x00000000)  returns 0x00 (0000ms, 0980ms total)
T9E13C 001:610 JLINK_WriteReg(R13 (SP), 0x10000800)  returns 0x00 (0000ms, 0980ms total)
T9E13C 001:610 JLINK_WriteReg(R14, 0x10000001)  returns 0x00 (0000ms, 0980ms total)
T9E13C 001:610 JLINK_WriteReg(R15 (PC), 0x10000020)  returns 0x00 (0000ms, 0980ms total)
T9E13C 001:610 JLINK_WriteReg(XPSR, 0x01000000)  returns 0x00 (0000ms, 0980ms total)
T9E13C 001:610 JLINK_WriteReg(MSP, 0x10000800)  returns 0x00 (0000ms, 0980ms total)
T9E13C 001:610 JLINK_WriteReg(PSP, 0x10000800)  returns 0x00 (0000ms, 0980ms total)
T9E13C 001:610 JLINK_WriteReg(CFBP, 0x00000000)  returns 0x00 (0000ms, 0980ms total)
T9E13C 001:610 JLINK_SetBPEx(Addr = 0x10000000, Type = 0xFFFFFFF2)  returns 0x0000000A (0000ms, 0980ms total)
T9E13C 001:610 JLINK_Go() -- CPU_WriteMem(4 bytes @ 0xE0002000) (0007ms, 0987ms total)
T9E13C 001:617 JLINK_IsHalted()  returns TRUE (0013ms, 1000ms total)
T9E13C 001:630 JLINK_ReadReg(R15 (PC))  returns 0x10000000 (0000ms, 0987ms total)
T9E13C 001:630 JLINK_ClrBPEx(BPHandle = 0x0000000A)  returns 0x00 (0000ms, 0987ms total)
T9E13C 001:630 JLINK_ReadReg(R0)  returns 0x00000001 (0000ms, 0987ms total)
T9E13C 001:630 JLINK_WriteReg(R0, 0x00000800)  returns 0x00 (0000ms, 0987ms total)
T9E13C 001:630 JLINK_WriteReg(R1, 0x00000200)  returns 0x00 (0000ms, 0987ms total)
T9E13C 001:630 JLINK_WriteReg(R2, 0x000000FF)  returns 0x00 (0000ms, 0987ms total)
T9E13C 001:630 JLINK_WriteReg(R3, 0x00000000)  returns 0x00 (0000ms, 0987ms total)
T9E13C 001:630 JLINK_WriteReg(R4, 0x00000000)  returns 0x00 (0000ms, 0987ms total)
T9E13C 001:630 JLINK_WriteReg(R5, 0x00000000)  returns 0x00 (0000ms, 0987ms total)
T9E13C 001:630 JLINK_WriteReg(R6, 0x00000000)  returns 0x00 (0000ms, 0987ms total)
T9E13C 001:631 JLINK_WriteReg(R7, 0x00000000)  returns 0x00 (0000ms, 0988ms total)
T9E13C 001:631 JLINK_WriteReg(R8, 0x00000000)  returns 0x00 (0000ms, 0988ms total)
T9E13C 001:631 JLINK_WriteReg(R9, 0x1000012C)  returns 0x00 (0000ms, 0988ms total)
T9E13C 001:631 JLINK_WriteReg(R10, 0x00000000)  returns 0x00 (0000ms, 0988ms total)
T9E13C 001:631 JLINK_WriteReg(R11, 0x00000000)  returns 0x00 (0000ms, 0988ms total)
T9E13C 001:631 JLINK_WriteReg(R12, 0x00000000)  returns 0x00 (0000ms, 0988ms total)
T9E13C 001:631 JLINK_WriteReg(R13 (SP), 0x10000800)  returns 0x00 (0000ms, 0988ms total)
T9E13C 001:631 JLINK_WriteReg(R14, 0x10000001)  returns 0x00 (0000ms, 0988ms total)
T9E13C 001:631 JLINK_WriteReg(R15 (PC), 0x100000A0)  returns 0x00 (0000ms, 0988ms total)
T9E13C 001:631 JLINK_WriteReg(XPSR, 0x01000000)  returns 0x00 (0000ms, 0988ms total)
T9E13C 001:631 JLINK_WriteReg(MSP, 0x10000800)  returns 0x00 (0000ms, 0988ms total)
T9E13C 001:631 JLINK_WriteReg(PSP, 0x10000800)  returns 0x00 (0000ms, 0988ms total)
T9E13C 001:631 JLINK_WriteReg(CFBP, 0x00000000)  returns 0x00 (0000ms, 0988ms total)
T9E13C 001:631 JLINK_SetBPEx(Addr = 0x10000000, Type = 0xFFFFFFF2)  returns 0x0000000B (0000ms, 0988ms total)
T9E13C 001:631 JLINK_Go() -- CPU_WriteMem(4 bytes @ 0xE0002000) (0005ms, 0993ms total)
T9E13C 001:636 JLINK_IsHalted()  returns FALSE (0005ms, 0998ms total)
T9E13C 001:656 JLINK_IsHalted()  returns TRUE (0011ms, 1004ms total)
T9E13C 001:667 JLINK_ReadReg(R15 (PC))  returns 0x10000000 (0000ms, 0993ms total)
T9E13C 001:667 JLINK_ClrBPEx(BPHandle = 0x0000000B)  returns 0x00 (0000ms, 0993ms total)
T9E13C 001:667 JLINK_ReadReg(R0)  returns 0x00000000 (0000ms, 0993ms total)
T9E13C 001:668 JLINK_WriteReg(R0, 0x00000A00)  returns 0x00 (0000ms, 0993ms total)
T9E13C 001:668 JLINK_WriteReg(R1, 0x00000200)  returns 0x00 (0000ms, 0993ms total)
T9E13C 001:668 JLINK_WriteReg(R2, 0x000000FF)  returns 0x00 (0000ms, 0993ms total)
T9E13C 001:668 JLINK_WriteReg(R3, 0x00000000)  returns 0x00 (0000ms, 0993ms total)
T9E13C 001:668 JLINK_WriteReg(R4, 0x00000000)  returns 0x00 (0000ms, 0993ms total)
T9E13C 001:668 JLINK_WriteReg(R5, 0x00000000)  returns 0x00 (0000ms, 0993ms total)
T9E13C 001:668 JLINK_WriteReg(R6, 0x00000000)  returns 0x00 (0000ms, 0993ms total)
T9E13C 001:668 JLINK_WriteReg(R7, 0x00000000)  returns 0x00 (0000ms, 0993ms total)
T9E13C 001:668 JLINK_WriteReg(R8, 0x00000000)  returns 0x00 (0000ms, 0993ms total)
T9E13C 001:668 JLINK_WriteReg(R9, 0x1000012C)  returns 0x00 (0000ms, 0993ms total)
T9E13C 001:668 JLINK_WriteReg(R10, 0x00000000)  returns 0x00 (0000ms, 0993ms total)
T9E13C 001:668 JLINK_WriteReg(R11, 0x00000000)  returns 0x00 (0000ms, 0993ms total)
T9E13C 001:668 JLINK_WriteReg(R12, 0x00000000)  returns 0x00 (0000ms, 0993ms total)
T9E13C 001:668 JLINK_WriteReg(R13 (SP), 0x10000800)  returns 0x00 (0000ms, 0993ms total)
T9E13C 001:668 JLINK_WriteReg(R14, 0x10000001)  returns 0x00 (0000ms, 0993ms total)
T9E13C 001:668 JLINK_WriteReg(R15 (PC), 0x10000020)  returns 0x00 (0000ms, 0993ms total)
T9E13C 001:668 JLINK_WriteReg(XPSR, 0x01000000)  returns 0x00 (0000ms, 0993ms total)
T9E13C 001:668 JLINK_WriteReg(MSP, 0x10000800)  returns 0x00 (0000ms, 0993ms total)
T9E13C 001:668 JLINK_WriteReg(PSP, 0x10000800)  returns 0x00 (0001ms, 0994ms total)
T9E13C 001:669 JLINK_WriteReg(CFBP, 0x00000000)  returns 0x00 (0000ms, 0994ms total)
T9E13C 001:669 JLINK_SetBPEx(Addr = 0x10000000, Type = 0xFFFFFFF2)  returns 0x0000000C (0000ms, 0994ms total)
T9E13C 001:669 JLINK_Go() -- CPU_WriteMem(4 bytes @ 0xE0002000) (0006ms, 1000ms total)
T9E13C 001:675 JLINK_IsHalted()  returns TRUE (0012ms, 1012ms total)
T9E13C 001:687 JLINK_ReadReg(R15 (PC))  returns 0x10000000 (0000ms, 1000ms total)
T9E13C 001:687 JLINK_ClrBPEx(BPHandle = 0x0000000C)  returns 0x00 (0000ms, 1000ms total)
T9E13C 001:687 JLINK_ReadReg(R0)  returns 0x00000001 (0000ms, 1000ms total)
T9E13C 001:687 JLINK_WriteReg(R0, 0x00000A00)  returns 0x00 (0000ms, 1000ms total)
T9E13C 001:687 JLINK_WriteReg(R1, 0x00000200)  returns 0x00 (0000ms, 1000ms total)
T9E13C 001:687 JLINK_WriteReg(R2, 0x000000FF)  returns 0x00 (0000ms, 1000ms total)
T9E13C 001:687 JLINK_WriteReg(R3, 0x00000000)  returns 0x00 (0000ms, 1000ms total)
T9E13C 001:687 JLINK_WriteReg(R4, 0x00000000)  returns 0x00 (0000ms, 1000ms total)
T9E13C 001:687 JLINK_WriteReg(R5, 0x00000000)  returns 0x00 (0000ms, 1000ms total)
T9E13C 001:687 JLINK_WriteReg(R6, 0x00000000)  returns 0x00 (0000ms, 1000ms total)
T9E13C 001:687 JLINK_WriteReg(R7, 0x00000000)  returns 0x00 (0000ms, 1000ms total)
T9E13C 001:687 JLINK_WriteReg(R8, 0x00000000)  returns 0x00 (0000ms, 1000ms total)
T9E13C 001:687 JLINK_WriteReg(R9, 0x1000012C)  returns 0x00 (0000ms, 1000ms total)
T9E13C 001:687 JLINK_WriteReg(R10, 0x00000000)  returns 0x00 (0000ms, 1000ms total)
T9E13C 001:687 JLINK_WriteReg(R11, 0x00000000)  returns 0x00 (0000ms, 1000ms total)
T9E13C 001:687 JLINK_WriteReg(R12, 0x00000000)  returns 0x00 (0000ms, 1000ms total)
T9E13C 001:687 JLINK_WriteReg(R13 (SP), 0x10000800)  returns 0x00 (0000ms, 1000ms total)
T9E13C 001:687 JLINK_WriteReg(R14, 0x10000001)  returns 0x00 (0000ms, 1000ms total)
T9E13C 001:687 JLINK_WriteReg(R15 (PC), 0x100000A0)  returns 0x00 (0000ms, 1000ms total)
T9E13C 001:687 JLINK_WriteReg(XPSR, 0x01000000)  returns 0x00 (0000ms, 1000ms total)
T9E13C 001:687 JLINK_WriteReg(MSP, 0x10000800)  returns 0x00 (0000ms, 1000ms total)
T9E13C 001:687 JLINK_WriteReg(PSP, 0x10000800)  returns 0x00 (0000ms, 1000ms total)
T9E13C 001:687 JLINK_WriteReg(CFBP, 0x00000000)  returns 0x00 (0000ms, 1000ms total)
T9E13C 001:687 JLINK_SetBPEx(Addr = 0x10000000, Type = 0xFFFFFFF2)  returns 0x0000000D (0000ms, 1000ms total)
T9E13C 001:687 JLINK_Go() -- CPU_WriteMem(4 bytes @ 0xE0002000) (0006ms, 1006ms total)
T9E13C 001:693 JLINK_IsHalted()  returns FALSE (0005ms, 1011ms total)
T9E13C 001:702 JLINK_IsHalted()  returns TRUE (0011ms, 1017ms total)
T9E13C 001:713 JLINK_ReadReg(R15 (PC))  returns 0x10000000 (0000ms, 1006ms total)
T9E13C 001:713 JLINK_ClrBPEx(BPHandle = 0x0000000D)  returns 0x00 (0000ms, 1006ms total)
T9E13C 001:713 JLINK_ReadReg(R0)  returns 0x00000000 (0000ms, 1006ms total)
T9E13C 001:714 JLINK_WriteReg(R0, 0x00000C00)  returns 0x00 (0000ms, 1006ms total)
T9E13C 001:714 JLINK_WriteReg(R1, 0x00000200)  returns 0x00 (0000ms, 1006ms total)
T9E13C 001:714 JLINK_WriteReg(R2, 0x000000FF)  returns 0x00 (0000ms, 1006ms total)
T9E13C 001:714 JLINK_WriteReg(R3, 0x00000000)  returns 0x00 (0000ms, 1006ms total)
T9E13C 001:714 JLINK_WriteReg(R4, 0x00000000)  returns 0x00 (0000ms, 1006ms total)
T9E13C 001:714 JLINK_WriteReg(R5, 0x00000000)  returns 0x00 (0000ms, 1006ms total)
T9E13C 001:714 JLINK_WriteReg(R6, 0x00000000)  returns 0x00 (0000ms, 1006ms total)
T9E13C 001:714 JLINK_WriteReg(R7, 0x00000000)  returns 0x00 (0000ms, 1006ms total)
T9E13C 001:714 JLINK_WriteReg(R8, 0x00000000)  returns 0x00 (0000ms, 1006ms total)
T9E13C 001:714 JLINK_WriteReg(R9, 0x1000012C)  returns 0x00 (0000ms, 1006ms total)
T9E13C 001:714 JLINK_WriteReg(R10, 0x00000000)  returns 0x00 (0000ms, 1006ms total)
T9E13C 001:714 JLINK_WriteReg(R11, 0x00000000)  returns 0x00 (0000ms, 1006ms total)
T9E13C 001:714 JLINK_WriteReg(R12, 0x00000000)  returns 0x00 (0000ms, 1006ms total)
T9E13C 001:714 JLINK_WriteReg(R13 (SP), 0x10000800)  returns 0x00 (0000ms, 1006ms total)
T9E13C 001:714 JLINK_WriteReg(R14, 0x10000001)  returns 0x00 (0000ms, 1006ms total)
T9E13C 001:714 JLINK_WriteReg(R15 (PC), 0x10000020)  returns 0x00 (0000ms, 1006ms total)
T9E13C 001:714 JLINK_WriteReg(XPSR, 0x01000000)  returns 0x00 (0000ms, 1006ms total)
T9E13C 001:714 JLINK_WriteReg(MSP, 0x10000800)  returns 0x00 (0000ms, 1006ms total)
T9E13C 001:714 JLINK_WriteReg(PSP, 0x10000800)  returns 0x00 (0000ms, 1006ms total)
T9E13C 001:714 JLINK_WriteReg(CFBP, 0x00000000)  returns 0x00 (0000ms, 1006ms total)
T9E13C 001:714 JLINK_SetBPEx(Addr = 0x10000000, Type = 0xFFFFFFF2)  returns 0x0000000E (0000ms, 1006ms total)
T9E13C 001:714 JLINK_Go() -- CPU_WriteMem(4 bytes @ 0xE0002000) (0007ms, 1013ms total)
T9E13C 001:721 JLINK_IsHalted()  returns TRUE (0012ms, 1025ms total)
T9E13C 001:733 JLINK_ReadReg(R15 (PC))  returns 0x10000000 (0000ms, 1013ms total)
T9E13C 001:733 JLINK_ClrBPEx(BPHandle = 0x0000000E)  returns 0x00 (0000ms, 1013ms total)
T9E13C 001:733 JLINK_ReadReg(R0)  returns 0x00000001 (0000ms, 1013ms total)
T9E13C 001:733 JLINK_WriteReg(R0, 0x00000C00)  returns 0x00 (0000ms, 1013ms total)
T9E13C 001:733 JLINK_WriteReg(R1, 0x00000200)  returns 0x00 (0000ms, 1013ms total)
T9E13C 001:733 JLINK_WriteReg(R2, 0x000000FF)  returns 0x00 (0000ms, 1013ms total)
T9E13C 001:733 JLINK_WriteReg(R3, 0x00000000)  returns 0x00 (0000ms, 1013ms total)
T9E13C 001:733 JLINK_WriteReg(R4, 0x00000000)  returns 0x00 (0000ms, 1013ms total)
T9E13C 001:733 JLINK_WriteReg(R5, 0x00000000)  returns 0x00 (0000ms, 1013ms total)
T9E13C 001:733 JLINK_WriteReg(R6, 0x00000000)  returns 0x00 (0000ms, 1013ms total)
T9E13C 001:733 JLINK_WriteReg(R7, 0x00000000)  returns 0x00 (0000ms, 1013ms total)
T9E13C 001:733 JLINK_WriteReg(R8, 0x00000000)  returns 0x00 (0000ms, 1013ms total)
T9E13C 001:733 JLINK_WriteReg(R9, 0x1000012C)  returns 0x00 (0000ms, 1013ms total)
T9E13C 001:733 JLINK_WriteReg(R10, 0x00000000)  returns 0x00 (0000ms, 1013ms total)
T9E13C 001:733 JLINK_WriteReg(R11, 0x00000000)  returns 0x00 (0000ms, 1013ms total)
T9E13C 001:733 JLINK_WriteReg(R12, 0x00000000)  returns 0x00 (0000ms, 1013ms total)
T9E13C 001:733 JLINK_WriteReg(R13 (SP), 0x10000800)  returns 0x00 (0000ms, 1013ms total)
T9E13C 001:733 JLINK_WriteReg(R14, 0x10000001)  returns 0x00 (0000ms, 1013ms total)
T9E13C 001:733 JLINK_WriteReg(R15 (PC), 0x100000A0)  returns 0x00 (0000ms, 1013ms total)
T9E13C 001:733 JLINK_WriteReg(XPSR, 0x01000000)  returns 0x00 (0000ms, 1013ms total)
T9E13C 001:733 JLINK_WriteReg(MSP, 0x10000800)  returns 0x00 (0000ms, 1013ms total)
T9E13C 001:733 JLINK_WriteReg(PSP, 0x10000800)  returns 0x00 (0000ms, 1013ms total)
T9E13C 001:733 JLINK_WriteReg(CFBP, 0x00000000)  returns 0x00 (0000ms, 1013ms total)
T9E13C 001:733 JLINK_SetBPEx(Addr = 0x10000000, Type = 0xFFFFFFF2)  returns 0x0000000F (0000ms, 1013ms total)
T9E13C 001:733 JLINK_Go() -- CPU_WriteMem(4 bytes @ 0xE0002000) (0006ms, 1019ms total)
T9E13C 001:740 JLINK_IsHalted()  returns FALSE (0004ms, 1024ms total)
T9E13C 001:759 JLINK_IsHalted()  returns TRUE (0012ms, 1032ms total)
T9E13C 001:771 JLINK_ReadReg(R15 (PC))  returns 0x10000000 (0000ms, 1020ms total)
T9E13C 001:771 JLINK_ClrBPEx(BPHandle = 0x0000000F)  returns 0x00 (0000ms, 1020ms total)
T9E13C 001:771 JLINK_ReadReg(R0)  returns 0x00000000 (0000ms, 1020ms total)
T9E13C 001:772 JLINK_WriteReg(R0, 0x00000E00)  returns 0x00 (0000ms, 1020ms total)
T9E13C 001:772 JLINK_WriteReg(R1, 0x00000200)  returns 0x00 (0000ms, 1020ms total)
T9E13C 001:772 JLINK_WriteReg(R2, 0x000000FF)  returns 0x00 (0000ms, 1020ms total)
T9E13C 001:772 JLINK_WriteReg(R3, 0x00000000)  returns 0x00 (0000ms, 1020ms total)
T9E13C 001:772 JLINK_WriteReg(R4, 0x00000000)  returns 0x00 (0000ms, 1020ms total)
T9E13C 001:772 JLINK_WriteReg(R5, 0x00000000)  returns 0x00 (0000ms, 1020ms total)
T9E13C 001:772 JLINK_WriteReg(R6, 0x00000000)  returns 0x00 (0000ms, 1020ms total)
T9E13C 001:772 JLINK_WriteReg(R7, 0x00000000)  returns 0x00 (0000ms, 1020ms total)
T9E13C 001:772 JLINK_WriteReg(R8, 0x00000000)  returns 0x00 (0000ms, 1020ms total)
T9E13C 001:772 JLINK_WriteReg(R9, 0x1000012C)  returns 0x00 (0000ms, 1020ms total)
T9E13C 001:772 JLINK_WriteReg(R10, 0x00000000)  returns 0x00 (0000ms, 1020ms total)
T9E13C 001:772 JLINK_WriteReg(R11, 0x00000000)  returns 0x00 (0000ms, 1020ms total)
T9E13C 001:772 JLINK_WriteReg(R12, 0x00000000)  returns 0x00 (0000ms, 1020ms total)
T9E13C 001:772 JLINK_WriteReg(R13 (SP), 0x10000800)  returns 0x00 (0000ms, 1020ms total)
T9E13C 001:772 JLINK_WriteReg(R14, 0x10000001)  returns 0x00 (0000ms, 1020ms total)
T9E13C 001:772 JLINK_WriteReg(R15 (PC), 0x10000020)  returns 0x00 (0000ms, 1020ms total)
T9E13C 001:772 JLINK_WriteReg(XPSR, 0x01000000)  returns 0x00 (0000ms, 1020ms total)
T9E13C 001:772 JLINK_WriteReg(MSP, 0x10000800)  returns 0x00 (0000ms, 1020ms total)
T9E13C 001:772 JLINK_WriteReg(PSP, 0x10000800)  returns 0x00 (0000ms, 1020ms total)
T9E13C 001:772 JLINK_WriteReg(CFBP, 0x00000000)  returns 0x00 (0000ms, 1020ms total)
T9E13C 001:772 JLINK_SetBPEx(Addr = 0x10000000, Type = 0xFFFFFFF2)  returns 0x00000010 (0000ms, 1020ms total)
T9E13C 001:772 JLINK_Go() -- CPU_WriteMem(4 bytes @ 0xE0002000) (0006ms, 1026ms total)
T9E13C 001:778 JLINK_IsHalted()  returns TRUE (0012ms, 1038ms total)
T9E13C 001:790 JLINK_ReadReg(R15 (PC))  returns 0x10000000 (0000ms, 1026ms total)
T9E13C 001:790 JLINK_ClrBPEx(BPHandle = 0x00000010)  returns 0x00 (0000ms, 1026ms total)
T9E13C 001:790 JLINK_ReadReg(R0)  returns 0x00000001 (0000ms, 1026ms total)
T9E13C 001:790 JLINK_WriteReg(R0, 0x00000E00)  returns 0x00 (0000ms, 1026ms total)
T9E13C 001:790 JLINK_WriteReg(R1, 0x00000200)  returns 0x00 (0000ms, 1026ms total)
T9E13C 001:790 JLINK_WriteReg(R2, 0x000000FF)  returns 0x00 (0000ms, 1026ms total)
T9E13C 001:790 JLINK_WriteReg(R3, 0x00000000)  returns 0x00 (0000ms, 1026ms total)
T9E13C 001:790 JLINK_WriteReg(R4, 0x00000000)  returns 0x00 (0000ms, 1026ms total)
T9E13C 001:790 JLINK_WriteReg(R5, 0x00000000)  returns 0x00 (0000ms, 1026ms total)
T9E13C 001:790 JLINK_WriteReg(R6, 0x00000000)  returns 0x00 (0000ms, 1026ms total)
T9E13C 001:790 JLINK_WriteReg(R7, 0x00000000)  returns 0x00 (0000ms, 1026ms total)
T9E13C 001:790 JLINK_WriteReg(R8, 0x00000000)  returns 0x00 (0000ms, 1026ms total)
T9E13C 001:790 JLINK_WriteReg(R9, 0x1000012C)  returns 0x00 (0000ms, 1026ms total)
T9E13C 001:790 JLINK_WriteReg(R10, 0x00000000)  returns 0x00 (0000ms, 1026ms total)
T9E13C 001:790 JLINK_WriteReg(R11, 0x00000000)  returns 0x00 (0000ms, 1026ms total)
T9E13C 001:790 JLINK_WriteReg(R12, 0x00000000)  returns 0x00 (0000ms, 1026ms total)
T9E13C 001:790 JLINK_WriteReg(R13 (SP), 0x10000800)  returns 0x00 (0000ms, 1026ms total)
T9E13C 001:790 JLINK_WriteReg(R14, 0x10000001)  returns 0x00 (0000ms, 1026ms total)
T9E13C 001:790 JLINK_WriteReg(R15 (PC), 0x100000A0)  returns 0x00 (0000ms, 1026ms total)
T9E13C 001:790 JLINK_WriteReg(XPSR, 0x01000000)  returns 0x00 (0000ms, 1026ms total)
T9E13C 001:790 JLINK_WriteReg(MSP, 0x10000800)  returns 0x00 (0000ms, 1026ms total)
T9E13C 001:790 JLINK_WriteReg(PSP, 0x10000800)  returns 0x00 (0000ms, 1026ms total)
T9E13C 001:790 JLINK_WriteReg(CFBP, 0x00000000)  returns 0x00 (0000ms, 1026ms total)
T9E13C 001:791 JLINK_SetBPEx(Addr = 0x10000000, Type = 0xFFFFFFF2)  returns 0x00000011 (0000ms, 1026ms total)
T9E13C 001:791 JLINK_Go() -- CPU_WriteMem(4 bytes @ 0xE0002000) (0005ms, 1031ms total)
T9E13C 001:796 JLINK_IsHalted()  returns FALSE (0005ms, 1036ms total)
T9E13C 001:808 JLINK_IsHalted()  returns TRUE (0012ms, 1043ms total)
T9E13C 001:820 JLINK_ReadReg(R15 (PC))  returns 0x10000000 (0000ms, 1031ms total)
T9E13C 001:820 JLINK_ClrBPEx(BPHandle = 0x00000011)  returns 0x00 (0000ms, 1031ms total)
T9E13C 001:820 JLINK_ReadReg(R0)  returns 0x00000000 (0000ms, 1031ms total)
T9E13C 001:820 JLINK_WriteReg(R0, 0x00001000)  returns 0x00 (0000ms, 1031ms total)
T9E13C 001:820 JLINK_WriteReg(R1, 0x00000200)  returns 0x00 (0000ms, 1031ms total)
T9E13C 001:820 JLINK_WriteReg(R2, 0x000000FF)  returns 0x00 (0000ms, 1031ms total)
T9E13C 001:820 JLINK_WriteReg(R3, 0x00000000)  returns 0x00 (0000ms, 1031ms total)
T9E13C 001:820 JLINK_WriteReg(R4, 0x00000000)  returns 0x00 (0000ms, 1031ms total)
T9E13C 001:820 JLINK_WriteReg(R5, 0x00000000)  returns 0x00 (0000ms, 1031ms total)
T9E13C 001:820 JLINK_WriteReg(R6, 0x00000000)  returns 0x00 (0000ms, 1031ms total)
T9E13C 001:820 JLINK_WriteReg(R7, 0x00000000)  returns 0x00 (0000ms, 1031ms total)
T9E13C 001:820 JLINK_WriteReg(R8, 0x00000000)  returns 0x00 (0000ms, 1031ms total)
T9E13C 001:820 JLINK_WriteReg(R9, 0x1000012C)  returns 0x00 (0000ms, 1031ms total)
T9E13C 001:820 JLINK_WriteReg(R10, 0x00000000)  returns 0x00 (0000ms, 1031ms total)
T9E13C 001:820 JLINK_WriteReg(R11, 0x00000000)  returns 0x00 (0000ms, 1031ms total)
T9E13C 001:820 JLINK_WriteReg(R12, 0x00000000)  returns 0x00 (0000ms, 1031ms total)
T9E13C 001:820 JLINK_WriteReg(R13 (SP), 0x10000800)  returns 0x00 (0000ms, 1031ms total)
T9E13C 001:820 JLINK_WriteReg(R14, 0x10000001)  returns 0x00 (0000ms, 1031ms total)
T9E13C 001:820 JLINK_WriteReg(R15 (PC), 0x10000020)  returns 0x00 (0000ms, 1031ms total)
T9E13C 001:820 JLINK_WriteReg(XPSR, 0x01000000)  returns 0x00 (0000ms, 1031ms total)
T9E13C 001:820 JLINK_WriteReg(MSP, 0x10000800)  returns 0x00 (0000ms, 1031ms total)
T9E13C 001:820 JLINK_WriteReg(PSP, 0x10000800)  returns 0x00 (0000ms, 1031ms total)
T9E13C 001:820 JLINK_WriteReg(CFBP, 0x00000000)  returns 0x00 (0000ms, 1031ms total)
T9E13C 001:820 JLINK_SetBPEx(Addr = 0x10000000, Type = 0xFFFFFFF2)  returns 0x00000012 (0000ms, 1031ms total)
T9E13C 001:820 JLINK_Go() -- CPU_WriteMem(4 bytes @ 0xE0002000) (0006ms, 1037ms total)
T9E13C 001:826 JLINK_IsHalted()  returns TRUE (0013ms, 1050ms total)
T9E13C 001:839 JLINK_ReadReg(R15 (PC))  returns 0x10000000 (0000ms, 1037ms total)
T9E13C 001:839 JLINK_ClrBPEx(BPHandle = 0x00000012)  returns 0x00 (0000ms, 1037ms total)
T9E13C 001:839 JLINK_ReadReg(R0)  returns 0x00000001 (0000ms, 1037ms total)
T9E13C 001:839 JLINK_WriteReg(R0, 0x00001000)  returns 0x00 (0000ms, 1037ms total)
T9E13C 001:839 JLINK_WriteReg(R1, 0x00000200)  returns 0x00 (0000ms, 1037ms total)
T9E13C 001:839 JLINK_WriteReg(R2, 0x000000FF)  returns 0x00 (0000ms, 1037ms total)
T9E13C 001:839 JLINK_WriteReg(R3, 0x00000000)  returns 0x00 (0000ms, 1037ms total)
T9E13C 001:839 JLINK_WriteReg(R4, 0x00000000)  returns 0x00 (0000ms, 1037ms total)
T9E13C 001:839 JLINK_WriteReg(R5, 0x00000000)  returns 0x00 (0000ms, 1037ms total)
T9E13C 001:839 JLINK_WriteReg(R6, 0x00000000)  returns 0x00 (0000ms, 1037ms total)
T9E13C 001:839 JLINK_WriteReg(R7, 0x00000000)  returns 0x00 (0000ms, 1037ms total)
T9E13C 001:839 JLINK_WriteReg(R8, 0x00000000)  returns 0x00 (0000ms, 1037ms total)
T9E13C 001:839 JLINK_WriteReg(R9, 0x1000012C)  returns 0x00 (0000ms, 1037ms total)
T9E13C 001:839 JLINK_WriteReg(R10, 0x00000000)  returns 0x00 (0000ms, 1037ms total)
T9E13C 001:839 JLINK_WriteReg(R11, 0x00000000)  returns 0x00 (0000ms, 1037ms total)
T9E13C 001:839 JLINK_WriteReg(R12, 0x00000000)  returns 0x00 (0000ms, 1037ms total)
T9E13C 001:839 JLINK_WriteReg(R13 (SP), 0x10000800)  returns 0x00 (0000ms, 1037ms total)
T9E13C 001:839 JLINK_WriteReg(R14, 0x10000001)  returns 0x00 (0000ms, 1037ms total)
T9E13C 001:839 JLINK_WriteReg(R15 (PC), 0x100000A0)  returns 0x00 (0000ms, 1037ms total)
T9E13C 001:839 JLINK_WriteReg(XPSR, 0x01000000)  returns 0x00 (0000ms, 1037ms total)
T9E13C 001:839 JLINK_WriteReg(MSP, 0x10000800)  returns 0x00 (0000ms, 1037ms total)
T9E13C 001:839 JLINK_WriteReg(PSP, 0x10000800)  returns 0x00 (0000ms, 1037ms total)
T9E13C 001:839 JLINK_WriteReg(CFBP, 0x00000000)  returns 0x00 (0000ms, 1037ms total)
T9E13C 001:839 JLINK_SetBPEx(Addr = 0x10000000, Type = 0xFFFFFFF2)  returns 0x00000013 (0000ms, 1037ms total)
T9E13C 001:839 JLINK_Go() -- CPU_WriteMem(4 bytes @ 0xE0002000) (0004ms, 1041ms total)
T9E13C 001:843 JLINK_IsHalted()  returns FALSE (0006ms, 1047ms total)
T9E13C 001:863 JLINK_IsHalted()  returns TRUE (0011ms, 1052ms total)
T9E13C 001:874 JLINK_ReadReg(R15 (PC))  returns 0x10000000 (0000ms, 1041ms total)
T9E13C 001:874 JLINK_ClrBPEx(BPHandle = 0x00000013)  returns 0x00 (0000ms, 1041ms total)
T9E13C 001:874 JLINK_ReadReg(R0)  returns 0x00000000 (0000ms, 1041ms total)
T9E13C 001:875 JLINK_WriteReg(R0, 0x00001200)  returns 0x00 (0000ms, 1041ms total)
T9E13C 001:875 JLINK_WriteReg(R1, 0x00000200)  returns 0x00 (0000ms, 1041ms total)
T9E13C 001:875 JLINK_WriteReg(R2, 0x000000FF)  returns 0x00 (0000ms, 1041ms total)
T9E13C 001:875 JLINK_WriteReg(R3, 0x00000000)  returns 0x00 (0000ms, 1041ms total)
T9E13C 001:875 JLINK_WriteReg(R4, 0x00000000)  returns 0x00 (0000ms, 1041ms total)
T9E13C 001:875 JLINK_WriteReg(R5, 0x00000000)  returns 0x00 (0000ms, 1041ms total)
T9E13C 001:875 JLINK_WriteReg(R6, 0x00000000)  returns 0x00 (0000ms, 1041ms total)
T9E13C 001:875 JLINK_WriteReg(R7, 0x00000000)  returns 0x00 (0000ms, 1041ms total)
T9E13C 001:875 JLINK_WriteReg(R8, 0x00000000)  returns 0x00 (0000ms, 1041ms total)
